
T0CC0 000:043 SEGGER J-Link V4.58a Log File (0020ms, 0060ms total)
T0CC0 000:043 DLL Compiled: Dec  5 2012 18:38:08 (0020ms, 0060ms total)
T0CC0 000:043 Logging started @ 2014-11-23 23:21 (0020ms, 0060ms total)
T0CC0 000:063 JLINK_SetWarnOutHandler(...) (0000ms, 0060ms total)
T0CC0 000:063 JLINK_OpenEx(...)
Firmware: J-Link ARM V8 compiled Nov 14 2012 22:34:52
Hardware: V8.00
S/N: 17892859
Feature(s): RDI,FlashDL,FlashBP,JFlash  returns O.K. (0016ms, 0076ms total)
T0CC0 000:079 JLINK_SetErrorOutHandler(...) (0000ms, 0076ms total)
T0CC0 000:079 JLINK_ExecCommand("ProjectFile = "G:\experiment\my car\STM32\term3\LWIP\user\JLinkSettings.ini"", ...)  returns 0x00 (0000ms, 0076ms total)
T0CC0 000:085 JLINK_ExecCommand("DisableConnectionTimeout", ...)  returns 0x00 (0000ms, 0076ms total)
T0CC0 000:085 JLINK_TIF_Select(JLINKARM_TIF_JTAG)  returns 0x00 (0000ms, 0076ms total)
T0CC0 000:085 JLINK_SetSpeed(2000) (0000ms, 0076ms total)
T0CC0 000:085 JLINK_GetHardwareVersion()  returns 0x13880 (0000ms, 0076ms total)
T0CC0 000:085 JLINK_GetDLLVersion()  returns 45801 (0000ms, 0076ms total)
T0CC0 000:085 JLINK_GetFirmwareString(...) (0000ms, 0076ms total)
T0CC0 000:091 JLINK_GetDLLVersion()  returns 45801 (0000ms, 0076ms total)
T0CC0 000:091 JLINK_GetCompileDateTime() (0000ms, 0076ms total)
T0CC0 000:095 JLINK_GetFirmwareString(...) (0000ms, 0076ms total)
T0CC0 000:097 JLINK_GetHardwareVersion()  returns 0x13880 (0000ms, 0076ms total)
T0CC0 000:108 JLINK_Reset() >0x2F8 JTAG>TotalIRLen = 9, IRPrint = 0x0011 >0x30 JTAG> >0x210 JTAG> >0x80 JTAG> >0x40 JTAG> >0x40 JTAG> >0x50 JTAG> >0x40 JTAG> >0x40 JTAG> >0x40 JTAG> >0x50 JTAG> >0x40 JTAG> >0x40 JTAG> >0x40 JTAG> >0x30 JTAG> >0x40 JTAG> >0x50 JTAG> >0x40 JTAG> >0x38 JTAG> >0x80 JTAG> >0x40 JTAG> >0x40 JTAG> >0x50 JTAG> >0x40 JTAG> >0x40 JTAG> >0x40 JTAG> >0x50 JTAG> >0x40 JTAG> >0x40 JTAG> >0x30 JTAG> >0x40 JTAG> >0x40 JTAG> >0x40 JTAG> >0x40 JTAG> >0x40 JTAG> >0x50 JTAG> >0x40 JTAG>
 >0x80 JTAG> >0x40 JTAG> >0x30 JTAG> >0x40 JTAG> >0x40 JTAG> >0x40 JTAG> >0x40 JTAG> >0x40 JTAG> >0x50 JTAG> >0x40 JTAG> >0x80 JTAG> >0x40 JTAG> >0x30 JTAG> >0x40 JTAG> >0x50 JTAG> >0x40 JTAG> >0x40 JTAG> >0x40 JTAG> >0x30 JTAG> >0x40 JTAG> >0x50 JTAG> >0x40 JTAG>Found Cortex-M3 r1p1, Little endian. >0x50 JTAG> >0x50 JTAG> >0x40 JTAG> >0x40 JTAG> >0x30 JTAG> >0x30 JTAG> >0x50 JTAG> >0x40 JTAG> >0x80 JTAG> >0x40 JTAG> >0x30 JTAG> >0x40 JTAG> >0x50 JTAG> >0x40 JTAG> >0x40 JTAG> >0x40 JTAG> >0x30 JTAG>
 >0x40 JTAG> >0x50 JTAG> >0x40 JTAG>TPIU fitted. >0x40 JTAG> >0x40 JTAG> >0x30 JTAG> >0x40 JTAG> >0x50 JTAG> >0x40 JTAG>ETM fitted. >0x40 JTAG> >0x40 JTAG> >0x30 JTAG> >0x40 JTAG> >0x50 JTAG> >0x40 JTAG> >0x40 JTAG> >0x40 JTAG> >0x30 JTAG> >0x40 JTAG> >0x50 JTAG> >0x40 JTAG>FPUnit: 6 code (BP) slots and 2 literal slots >0x40 JTAG> >0x40 JTAG> >0x30 JTAG> >0x40 JTAG> >0x50 JTAG> >0x40 JTAG> >0x40 JTAG> >0x40 JTAG> >0x30 JTAG> >0x40 JTAG> >0x50 JTAG> >0x40 JTAG> >0x40 JTAG> >0x40 JTAG> >0x30 JTAG>
 >0x30 JTAG> >0x50 JTAG> >0x40 JTAG> >0x88 JTAG> >0x80 JTAG> >0x40 JTAG> >0x40 JTAG> >0x50 JTAG> >0x40 JTAG> >0x40 JTAG> >0x40 JTAG> >0x50 JTAG> >0x40 JTAG> >0x40 JTAG> >0x30 JTAG> >0x40 JTAG> >0x40 JTAG> >0x40 JTAG> >0x40 JTAG> >0x40 JTAG> >0x50 JTAG> >0x40 JTAG> >0x80 JTAG> >0x40 JTAG> >0x30 JTAG> >0x40 JTAG> >0x40 JTAG> >0x40 JTAG> >0x40 JTAG> >0x40 JTAG> >0x50 JTAG> >0x40 JTAG> >0x80 JTAG> >0x40 JTAG> >0x30 JTAG> >0x40 JTAG> >0x50 JTAG> >0x40 JTAG> >0x40 JTAG> >0x40 JTAG> >0x30 JTAG> >0x40 JTAG>
 >0x50 JTAG> >0x40 JTAG>Found Cortex-M3 r1p1, Little endian. >0x50 JTAG> >0x50 JTAG> >0x40 JTAG> >0x40 JTAG> >0x30 JTAG> >0x30 JTAG> >0x50 JTAG> >0x40 JTAG> >0x80 JTAG> >0x40 JTAG> >0x30 JTAG> >0x40 JTAG> >0x50 JTAG> >0x40 JTAG> >0x40 JTAG> >0x40 JTAG> >0x30 JTAG> >0x40 JTAG> >0x50 JTAG> >0x40 JTAG>TPIU fitted. >0x40 JTAG> >0x40 JTAG> >0x30 JTAG> >0x40 JTAG> >0x50 JTAG> >0x40 JTAG>ETM fitted. >0x40 JTAG> >0x40 JTAG> >0x30 JTAG> >0x40 JTAG> >0x50 JTAG> >0x40 JTAG> >0x40 JTAG> >0x40 JTAG> >0x30 JTAG>
 >0x40 JTAG> >0x50 JTAG> >0x40 JTAG>FPUnit: 6 code (BP) slots and 2 literal slots >0x40 JTAG> >0x40 JTAG> >0x30 JTAG> >0x40 JTAG> >0x50 JTAG> >0x40 JTAG> >0x40 JTAG> >0x40 JTAG> >0x30 JTAG> >0x40 JTAG> >0x50 JTAG> >0x40 JTAG> >0x40 JTAG> >0x40 JTAG> >0x30 JTAG> >0x30 JTAG> >0x50 JTAG> >0x40 JTAG> -- CPU is running -- CPU_WriteMem(4 bytes @ 0xE000EDF0) -- CPU is running -- CPU_WriteMem(4 bytes @ 0xE000EDFC) -- CPU is running -- CPU_WriteMem(4 bytes @ 0xE000ED0C) -- CPU is running
 -- CPU_ReadMem(4 bytes @ 0xE000EDF0) -- CPU is running -- CPU_ReadMem(4 bytes @ 0xE000EDF0) -- CPU is running -- CPU_WriteMem(4 bytes @ 0xE000EDF0) -- CPU is running -- CPU_WriteMem(4 bytes @ 0xE000EDFC) -- CPU is running -- CPU_ReadMem(4 bytes @ 0xE000EDF0) >0xD0 JTAG> >0x40 JTAG> >0x30 JTAG> >0x40 JTAG> >0x50 JTAG> >0x40 JTAG> -- CPU_WriteMem(4 bytes @ 0xE000EDFC) -- CPU_WriteMem(4 bytes @ 0xE0001028) -- CPU_WriteMem(4 bytes @ 0xE0001038) -- CPU_WriteMem(4 bytes @ 0xE0001048)
 -- CPU_WriteMem(4 bytes @ 0xE0001058) -- CPU_WriteMem(4 bytes @ 0xE0002000) (0188ms, 0264ms total)
T0CC0 000:296 JLINK_GetIdData(...) ScanLen=9 NumDevices=2 aId[0]=0x3BA00477 aIrRead[0]=0 aScanLen[0]=0 aScanRead[0]=0 (0000ms, 0264ms total)
T0CC0 000:296 JLINK_JTAG_GetDeviceID(DeviceIndex = 0)  returns 0x3BA00477 (0000ms, 0264ms total)
T0CC0 000:296 JLINK_JTAG_GetDeviceInfo(DeviceIndex = 0)  returns 0x00 (0000ms, 0264ms total)
T0CC0 000:296 JLINK_JTAG_GetDeviceID(DeviceIndex = 1)  returns 0x6414041 (0000ms, 0264ms total)
T0CC0 000:296 JLINK_JTAG_GetDeviceInfo(DeviceIndex = 1)  returns 0x00 (0000ms, 0264ms total)
T0CC0 000:296 JLINK_GetDebugInfo(0x100) -- Value=0xE00FF003  returns 0x00 (0000ms, 0264ms total)
T0CC0 000:298 JLINK_ReadMem (0xE00FF000, 0x0018 Bytes, ...) -- CPU_ReadMem(24 bytes @ 0xE00FF000) -- Data:  03 F0 F0 FF 03 20 F0 FF 03 30 F0 FF 03 10 F0 FF ...  returns 0x00 (0001ms, 0265ms total)
T0CC0 000:299 JLINK_ReadMemU32(0xE000ED00, 0x0001 Items, ...) -- CPU_ReadMem(4 bytes @ 0xE000ED00) -- Data:  31 C2 1F 41  returns 0x01 (0001ms, 0266ms total)
T0CC0 000:301 JLINK_Halt()  returns 0x00 (0000ms, 0266ms total)
T0CC0 000:301 JLINK_IsHalted()  returns TRUE (0000ms, 0266ms total)
T0CC0 000:301 JLINK_ReadMemU32(0xE000EDF0, 0x0001 Items, ...) -- CPU_ReadMem(4 bytes @ 0xE000EDF0) -- Data:  03 00 03 00  returns 0x01 (0001ms, 0267ms total)
T0CC0 000:302 JLINK_WriteU32(0xE000EDF0, 0xA05F0003) -- CPU_WriteMem(4 bytes @ 0xE000EDF0)  returns 0x00 (0001ms, 0268ms total)
T0CC0 000:303 JLINK_WriteU32(0xE000EDFC, 0x01000000) -- CPU_WriteMem(4 bytes @ 0xE000EDFC)  returns 0x00 (0000ms, 0268ms total)
T0CC0 000:303 JLINK_ReadMemU32(0xE0002000, 0x0001 Items, ...) -- CPU_ReadMem(4 bytes @ 0xE0002000) -- Data:  61 02 00 00  returns 0x01 (0001ms, 0269ms total)
T0CC0 000:304 JLINK_ReadMemU32(0xE0001000, 0x0001 Items, ...) -- CPU_ReadMem(4 bytes @ 0xE0001000) -- Data:  01 00 00 40  returns 0x01 (0001ms, 0270ms total)
T0CC0 000:316 JLINK_ExecCommand("Device = STM32F103VE", ...)
                JLINK_ExecCommand("map ram 0x20000000 - 0x2000FFFF", ...)  returns 0x00 (0000ms, 0000ms total)
                JLINK_AddMirrorAreaEx(Addr = 0x00000000, Size = 0x00000000) (0000ms, 0000ms total)
              Device "STM32F103VE" selected (512 KB flash, 64 KB RAM).  returns 0x00 (0004ms, 0274ms total)
T0CC0 000:320 JLINK_GetHWStatus(...)  returns 0x00 (0000ms, 0274ms total)
T0CC0 000:326 JLINK_GetNumBPUnits(Type = 0xFFFFFF00)  returns 0x06 (0000ms, 0274ms total)
T0CC0 000:326 JLINK_GetNumBPUnits(Type = 0xF0)  returns 0x2000 (0000ms, 0274ms total)
T0CC0 000:326 JLINK_GetNumWPUnits()  returns 0x04 (0000ms, 0274ms total)
T0CC0 000:334 JLINK_GetSpeed()  returns 0x7D0 (0000ms, 0274ms total)
T0CC0 000:338 JLINK_ReadMemU32(0xE000E004, 0x0001 Items, ...) -- CPU_ReadMem(4 bytes @ 0xE000E004) -- Data:  01 00 00 00  returns 0x01 (0001ms, 0275ms total)
T0CC0 000:339 JLINK_WriteMem(0xE0001000, 0x001C Bytes, ...) -- Data:  01 00 00 00 00 00 00 00 00 00 00 00 00 00 00 00 ... -- CPU_WriteMem(28 bytes @ 0xE0001000)  returns 0x1C (0001ms, 0276ms total)
T0CC0 000:340 JLINK_ReadMem (0xE0001000, 0x001C Bytes, ...) -- CPU_ReadMem(28 bytes @ 0xE0001000) -- Data:  01 00 00 40 00 00 00 00 00 00 00 00 00 00 00 00 ...  returns 0x00 (0001ms, 0277ms total)
T0CC0 000:341 JLINK_Halt()  returns 0x00 (0000ms, 0277ms total)
T0CC0 000:341 JLINK_IsHalted()  returns TRUE (0000ms, 0277ms total)
T0CC0 000:344 JLINK_WriteMem(0x20000000, 0x0164 Bytes, ...) -- Data:  00 BE 0A E0 0D 78 2D 06 68 40 08 24 40 00 00 D3 ... -- CPU_WriteMem(356 bytes @ 0x20000000)  returns 0x164 (0004ms, 0281ms total)
T0CC0 000:348 JLINK_WriteReg(R0, 0x08000000)  returns 0x00 (0000ms, 0281ms total)
T0CC0 000:348 JLINK_WriteReg(R1, 0x007A1200)  returns 0x00 (0000ms, 0281ms total)
T0CC0 000:348 JLINK_WriteReg(R2, 0x00000001)  returns 0x00 (0000ms, 0281ms total)
T0CC0 000:348 JLINK_WriteReg(R3, 0x00000000)  returns 0x00 (0000ms, 0281ms total)
T0CC0 000:348 JLINK_WriteReg(R4, 0x00000000)  returns 0x00 (0000ms, 0281ms total)
T0CC0 000:348 JLINK_WriteReg(R5, 0x00000000)  returns 0x00 (0000ms, 0281ms total)
T0CC0 000:348 JLINK_WriteReg(R6, 0x00000000)  returns 0x00 (0000ms, 0281ms total)
T0CC0 000:348 JLINK_WriteReg(R7, 0x00000000)  returns 0x00 (0000ms, 0281ms total)
T0CC0 000:348 JLINK_WriteReg(R8, 0x00000000)  returns 0x00 (0000ms, 0281ms total)
T0CC0 000:348 JLINK_WriteReg(R9, 0x20000160)  returns 0x00 (0000ms, 0281ms total)
T0CC0 000:348 JLINK_WriteReg(R10, 0x00000000)  returns 0x00 (0000ms, 0281ms total)
T0CC0 000:348 JLINK_WriteReg(R11, 0x00000000)  returns 0x00 (0000ms, 0281ms total)
T0CC0 000:348 JLINK_WriteReg(R12, 0x00000000)  returns 0x00 (0000ms, 0281ms total)
T0CC0 000:348 JLINK_WriteReg(R13, 0x20000800)  returns 0x00 (0000ms, 0281ms total)
T0CC0 000:348 JLINK_WriteReg(R14, 0x20000001)  returns 0x00 (0000ms, 0281ms total)
T0CC0 000:348 JLINK_WriteReg(R15, 0x20000038)  returns 0x00 (0000ms, 0281ms total)
T0CC0 000:348 JLINK_WriteReg(XPSR, 0x01000000)  returns 0x00 (0000ms, 0281ms total)
T0CC0 000:348 JLINK_WriteReg(MSP, 0x20000800)  returns 0x00 (0000ms, 0281ms total)
T0CC0 000:348 JLINK_WriteReg(PSP, 0x20000800)  returns 0x00 (0000ms, 0281ms total)
T0CC0 000:348 JLINK_WriteReg(CFBP, 0x00000000)  returns 0x00 (0000ms, 0281ms total)
T0CC0 000:348 JLINK_SetBPEx(Addr = 0x20000000, Type = 0xFFFFFFF2) -- CPU_ReadMem(2 bytes @ 0x20000000)  returns 0x00000001 (0001ms, 0282ms total)
T0CC0 000:349 JLINK_Go() -- CPU_WriteMem(2 bytes @ 0x20000000) -- CPU_WriteMem(4 bytes @ 0xE0002008) -- CPU_WriteMem(4 bytes @ 0xE000200C) -- CPU_WriteMem(4 bytes @ 0xE0002010) -- CPU_WriteMem(4 bytes @ 0xE0002014) -- CPU_WriteMem(4 bytes @ 0xE0002018) -- CPU_WriteMem(4 bytes @ 0xE000201C) (0008ms, 0290ms total)
T0CC0 000:357 JLINK_IsHalted() -- CPU_ReadMem(2 bytes @ 0x20000000)  returns TRUE (0006ms, 0296ms total)
T0CC0 000:363 JLINK_ReadReg(R15)  returns 0x20000000 (0000ms, 0290ms total)
T0CC0 000:363 JLINK_ClrBPEx(BPHandle = 0x00000001)  returns 0x00 (0000ms, 0290ms total)
T0CC0 000:363 JLINK_ReadReg(R0)  returns 0x00000000 (0000ms, 0290ms total)
T0CC0 000:364 JLINK_WriteReg(R0, 0x08000000)  returns 0x00 (0000ms, 0290ms total)
T0CC0 000:364 JLINK_WriteReg(R1, 0x007A1200)  returns 0x00 (0000ms, 0290ms total)
T0CC0 000:364 JLINK_WriteReg(R2, 0x00000001)  returns 0x00 (0000ms, 0290ms total)
T0CC0 000:364 JLINK_WriteReg(R3, 0x00000000)  returns 0x00 (0000ms, 0290ms total)
T0CC0 000:364 JLINK_WriteReg(R4, 0x00000000)  returns 0x00 (0000ms, 0290ms total)
T0CC0 000:364 JLINK_WriteReg(R5, 0x00000000)  returns 0x00 (0000ms, 0290ms total)
T0CC0 000:364 JLINK_WriteReg(R6, 0x00000000)  returns 0x00 (0000ms, 0290ms total)
T0CC0 000:364 JLINK_WriteReg(R7, 0x00000000)  returns 0x00 (0000ms, 0290ms total)
T0CC0 000:364 JLINK_WriteReg(R8, 0x00000000)  returns 0x00 (0000ms, 0290ms total)
T0CC0 000:364 JLINK_WriteReg(R9, 0x20000160)  returns 0x00 (0000ms, 0290ms total)
T0CC0 000:364 JLINK_WriteReg(R10, 0x00000000)  returns 0x00 (0000ms, 0290ms total)
T0CC0 000:364 JLINK_WriteReg(R11, 0x00000000)  returns 0x00 (0000ms, 0290ms total)
T0CC0 000:364 JLINK_WriteReg(R12, 0x00000000)  returns 0x00 (0000ms, 0290ms total)
T0CC0 000:364 JLINK_WriteReg(R13, 0x20000800)  returns 0x00 (0000ms, 0290ms total)
T0CC0 000:364 JLINK_WriteReg(R14, 0x20000001)  returns 0x00 (0000ms, 0290ms total)
T0CC0 000:364 JLINK_WriteReg(R15, 0x2000007C)  returns 0x00 (0000ms, 0290ms total)
T0CC0 000:364 JLINK_WriteReg(XPSR, 0x01000000)  returns 0x00 (0000ms, 0290ms total)
T0CC0 000:364 JLINK_WriteReg(MSP, 0x20000800)  returns 0x00 (0000ms, 0290ms total)
T0CC0 000:364 JLINK_WriteReg(PSP, 0x20000800)  returns 0x00 (0000ms, 0290ms total)
T0CC0 000:364 JLINK_WriteReg(CFBP, 0x00000000)  returns 0x00 (0000ms, 0290ms total)
T0CC0 000:364 JLINK_SetBPEx(Addr = 0x20000000, Type = 0xFFFFFFF2)  returns 0x00000002 (0000ms, 0290ms total)
T0CC0 000:364 JLINK_Go() (0002ms, 0292ms total)
T0CC0 000:366 JLINK_IsHalted()  returns FALSE (0000ms, 0292ms total)
T0CC0 000:417 JLINK_IsHalted() -- CPU_ReadMem(2 bytes @ 0x20000000)  returns TRUE (0006ms, 0298ms total)
T0CC0 000:423 JLINK_ReadReg(R15)  returns 0x20000000 (0000ms, 0292ms total)
T0CC0 000:423 JLINK_ClrBPEx(BPHandle = 0x00000002)  returns 0x00 (0000ms, 0292ms total)
T0CC0 000:423 JLINK_ReadReg(R0)  returns 0x00000000 (0000ms, 0292ms total)
T0CC0 000:474 JLINK_WriteReg(R0, 0x00000001)  returns 0x00 (0000ms, 0292ms total)
T0CC0 000:474 JLINK_WriteReg(R1, 0x007A1200)  returns 0x00 (0000ms, 0292ms total)
T0CC0 000:474 JLINK_WriteReg(R2, 0x00000001)  returns 0x00 (0000ms, 0292ms total)
T0CC0 000:474 JLINK_WriteReg(R3, 0x00000000)  returns 0x00 (0000ms, 0292ms total)
T0CC0 000:474 JLINK_WriteReg(R4, 0x00000000)  returns 0x00 (0000ms, 0292ms total)
T0CC0 000:474 JLINK_WriteReg(R5, 0x00000000)  returns 0x00 (0000ms, 0292ms total)
T0CC0 000:474 JLINK_WriteReg(R6, 0x00000000)  returns 0x00 (0000ms, 0292ms total)
T0CC0 000:474 JLINK_WriteReg(R7, 0x00000000)  returns 0x00 (0000ms, 0292ms total)
T0CC0 000:474 JLINK_WriteReg(R8, 0x00000000)  returns 0x00 (0000ms, 0292ms total)
T0CC0 000:474 JLINK_WriteReg(R9, 0x20000160)  returns 0x00 (0000ms, 0292ms total)
T0CC0 000:474 JLINK_WriteReg(R10, 0x00000000)  returns 0x00 (0000ms, 0292ms total)
T0CC0 000:474 JLINK_WriteReg(R11, 0x00000000)  returns 0x00 (0000ms, 0292ms total)
T0CC0 000:474 JLINK_WriteReg(R12, 0x00000000)  returns 0x00 (0000ms, 0292ms total)
T0CC0 000:474 JLINK_WriteReg(R13, 0x20000800)  returns 0x00 (0000ms, 0292ms total)
T0CC0 000:474 JLINK_WriteReg(R14, 0x20000001)  returns 0x00 (0000ms, 0292ms total)
T0CC0 000:474 JLINK_WriteReg(R15, 0x2000006A)  returns 0x00 (0000ms, 0292ms total)
T0CC0 000:474 JLINK_WriteReg(XPSR, 0x01000000)  returns 0x00 (0000ms, 0292ms total)
T0CC0 000:474 JLINK_WriteReg(MSP, 0x20000800)  returns 0x00 (0000ms, 0292ms total)
T0CC0 000:474 JLINK_WriteReg(PSP, 0x20000800)  returns 0x00 (0000ms, 0292ms total)
T0CC0 000:474 JLINK_WriteReg(CFBP, 0x00000000)  returns 0x00 (0000ms, 0292ms total)
T0CC0 000:474 JLINK_SetBPEx(Addr = 0x20000000, Type = 0xFFFFFFF2)  returns 0x00000003 (0000ms, 0292ms total)
T0CC0 000:474 JLINK_Go() (0002ms, 0294ms total)
T0CC0 000:476 JLINK_IsHalted() -- CPU_ReadMem(2 bytes @ 0x20000000)  returns TRUE (0008ms, 0302ms total)
T0CC0 000:484 JLINK_ReadReg(R15)  returns 0x20000000 (0000ms, 0294ms total)
T0CC0 000:484 JLINK_ClrBPEx(BPHandle = 0x00000003)  returns 0x00 (0000ms, 0294ms total)
T0CC0 000:484 JLINK_ReadReg(R0)  returns 0x00000000 (0000ms, 0294ms total)
T0CC0 000:490 JLINK_WriteMem(0x20000000, 0x0164 Bytes, ...) -- Data:  00 BE 0A E0 0D 78 2D 06 68 40 08 24 40 00 00 D3 ... -- CPU_WriteMem(356 bytes @ 0x20000000)  returns 0x164 (0003ms, 0297ms total)
T0CC0 000:493 JLINK_WriteReg(R0, 0x08000000)  returns 0x00 (0000ms, 0297ms total)
T0CC0 000:493 JLINK_WriteReg(R1, 0x007A1200)  returns 0x00 (0000ms, 0297ms total)
T0CC0 000:493 JLINK_WriteReg(R2, 0x00000002)  returns 0x00 (0000ms, 0297ms total)
T0CC0 000:493 JLINK_WriteReg(R3, 0x00000000)  returns 0x00 (0001ms, 0298ms total)
T0CC0 000:494 JLINK_WriteReg(R4, 0x00000000)  returns 0x00 (0000ms, 0298ms total)
T0CC0 000:494 JLINK_WriteReg(R5, 0x00000000)  returns 0x00 (0000ms, 0298ms total)
T0CC0 000:494 JLINK_WriteReg(R6, 0x00000000)  returns 0x00 (0000ms, 0298ms total)
T0CC0 000:494 JLINK_WriteReg(R7, 0x00000000)  returns 0x00 (0000ms, 0298ms total)
T0CC0 000:494 JLINK_WriteReg(R8, 0x00000000)  returns 0x00 (0000ms, 0298ms total)
T0CC0 000:494 JLINK_WriteReg(R9, 0x20000160)  returns 0x00 (0000ms, 0298ms total)
T0CC0 000:494 JLINK_WriteReg(R10, 0x00000000)  returns 0x00 (0000ms, 0298ms total)
T0CC0 000:494 JLINK_WriteReg(R11, 0x00000000)  returns 0x00 (0000ms, 0298ms total)
T0CC0 000:494 JLINK_WriteReg(R12, 0x00000000)  returns 0x00 (0000ms, 0298ms total)
T0CC0 000:494 JLINK_WriteReg(R13, 0x20000800)  returns 0x00 (0000ms, 0298ms total)
T0CC0 000:494 JLINK_WriteReg(R14, 0x20000001)  returns 0x00 (0000ms, 0298ms total)
T0CC0 000:494 JLINK_WriteReg(R15, 0x20000038)  returns 0x00 (0000ms, 0298ms total)
T0CC0 000:494 JLINK_WriteReg(XPSR, 0x01000000)  returns 0x00 (0000ms, 0298ms total)
T0CC0 000:494 JLINK_WriteReg(MSP, 0x20000800)  returns 0x00 (0000ms, 0298ms total)
T0CC0 000:494 JLINK_WriteReg(PSP, 0x20000800)  returns 0x00 (0000ms, 0298ms total)
T0CC0 000:494 JLINK_WriteReg(CFBP, 0x00000000)  returns 0x00 (0000ms, 0298ms total)
T0CC0 000:494 JLINK_SetBPEx(Addr = 0x20000000, Type = 0xFFFFFFF2) -- CPU_ReadMem(2 bytes @ 0x20000000)  returns 0x00000004 (0001ms, 0299ms total)
T0CC0 000:495 JLINK_Go() -- CPU_WriteMem(2 bytes @ 0x20000000) (0004ms, 0303ms total)
T0CC0 000:499 JLINK_IsHalted() -- CPU_ReadMem(2 bytes @ 0x20000000)  returns TRUE (0006ms, 0309ms total)
T0CC0 000:505 JLINK_ReadReg(R15)  returns 0x20000000 (0000ms, 0303ms total)
T0CC0 000:505 JLINK_ClrBPEx(BPHandle = 0x00000004)  returns 0x00 (0000ms, 0303ms total)
T0CC0 000:505 JLINK_ReadReg(R0)  returns 0x00000000 (0000ms, 0303ms total)
T0CC0 000:505 JLINK_WriteMem(0x20000164, 0x0400 Bytes, ...) -- Data:  00 08 00 20 47 01 00 08 61 12 00 08 63 12 00 08 ... -- CPU_WriteMem(1024 bytes @ 0x20000164)  returns 0x400 (0007ms, 0310ms total)
T0CC0 000:512 JLINK_WriteReg(R0, 0x08000000)  returns 0x00 (0000ms, 0310ms total)
T0CC0 000:512 JLINK_WriteReg(R1, 0x00000400)  returns 0x00 (0000ms, 0310ms total)
T0CC0 000:512 JLINK_WriteReg(R2, 0x20000164)  returns 0x00 (0000ms, 0310ms total)
T0CC0 000:512 JLINK_WriteReg(R3, 0x00000000)  returns 0x00 (0000ms, 0310ms total)
T0CC0 000:512 JLINK_WriteReg(R4, 0x00000000)  returns 0x00 (0000ms, 0310ms total)
T0CC0 000:512 JLINK_WriteReg(R5, 0x00000000)  returns 0x00 (0000ms, 0310ms total)
T0CC0 000:512 JLINK_WriteReg(R6, 0x00000000)  returns 0x00 (0000ms, 0310ms total)
T0CC0 000:512 JLINK_WriteReg(R7, 0x00000000)  returns 0x00 (0000ms, 0310ms total)
T0CC0 000:512 JLINK_WriteReg(R8, 0x00000000)  returns 0x00 (0000ms, 0310ms total)
T0CC0 000:512 JLINK_WriteReg(R9, 0x20000160)  returns 0x00 (0000ms, 0310ms total)
T0CC0 000:512 JLINK_WriteReg(R10, 0x00000000)  returns 0x00 (0000ms, 0310ms total)
T0CC0 000:512 JLINK_WriteReg(R11, 0x00000000)  returns 0x00 (0000ms, 0310ms total)
T0CC0 000:512 JLINK_WriteReg(R12, 0x00000000)  returns 0x00 (0000ms, 0310ms total)
T0CC0 000:512 JLINK_WriteReg(R13, 0x20000800)  returns 0x00 (0000ms, 0310ms total)
T0CC0 000:512 JLINK_WriteReg(R14, 0x20000001)  returns 0x00 (0000ms, 0310ms total)
T0CC0 000:512 JLINK_WriteReg(R15, 0x200000F4)  returns 0x00 (0000ms, 0310ms total)
T0CC0 000:512 JLINK_WriteReg(XPSR, 0x01000000)  returns 0x00 (0001ms, 0311ms total)
T0CC0 000:513 JLINK_WriteReg(MSP, 0x20000800)  returns 0x00 (0000ms, 0311ms total)
T0CC0 000:513 JLINK_WriteReg(PSP, 0x20000800)  returns 0x00 (0000ms, 0311ms total)
T0CC0 000:513 JLINK_WriteReg(CFBP, 0x00000000)  returns 0x00 (0000ms, 0311ms total)
T0CC0 000:513 JLINK_SetBPEx(Addr = 0x20000000, Type = 0xFFFFFFF2)  returns 0x00000005 (0000ms, 0311ms total)
T0CC0 000:513 JLINK_Go() (0002ms, 0313ms total)
T0CC0 000:515 JLINK_IsHalted()  returns FALSE (0001ms, 0314ms total)
T0CC0 000:566 JLINK_IsHalted() -- CPU_ReadMem(2 bytes @ 0x20000000)  returns TRUE (0006ms, 0319ms total)
T0CC0 000:572 JLINK_ReadReg(R15)  returns 0x20000000 (0000ms, 0313ms total)
T0CC0 000:572 JLINK_ClrBPEx(BPHandle = 0x00000005)  returns 0x00 (0000ms, 0313ms total)
T0CC0 000:572 JLINK_ReadReg(R0)  returns 0x00000000 (0000ms, 0313ms total)
T0CC0 000:575 JLINK_WriteMem(0x20000164, 0x0400 Bytes, ...) -- Data:  35 E0 01 21 04 20 00 F0 F6 FA 00 21 04 20 00 F0 ... -- CPU_WriteMem(1024 bytes @ 0x20000164)  returns 0x400 (0007ms, 0320ms total)
T0CC0 000:582 JLINK_WriteReg(R0, 0x08000400)  returns 0x00 (0000ms, 0320ms total)
T0CC0 000:582 JLINK_WriteReg(R1, 0x00000400)  returns 0x00 (0000ms, 0320ms total)
T0CC0 000:582 JLINK_WriteReg(R2, 0x20000164)  returns 0x00 (0000ms, 0320ms total)
T0CC0 000:582 JLINK_WriteReg(R3, 0x00000000)  returns 0x00 (0000ms, 0320ms total)
T0CC0 000:582 JLINK_WriteReg(R4, 0x00000000)  returns 0x00 (0000ms, 0320ms total)
T0CC0 000:582 JLINK_WriteReg(R5, 0x00000000)  returns 0x00 (0000ms, 0320ms total)
T0CC0 000:582 JLINK_WriteReg(R6, 0x00000000)  returns 0x00 (0000ms, 0320ms total)
T0CC0 000:582 JLINK_WriteReg(R7, 0x00000000)  returns 0x00 (0000ms, 0320ms total)
T0CC0 000:582 JLINK_WriteReg(R8, 0x00000000)  returns 0x00 (0000ms, 0320ms total)
T0CC0 000:582 JLINK_WriteReg(R9, 0x20000160)  returns 0x00 (0000ms, 0320ms total)
T0CC0 000:582 JLINK_WriteReg(R10, 0x00000000)  returns 0x00 (0000ms, 0320ms total)
T0CC0 000:582 JLINK_WriteReg(R11, 0x00000000)  returns 0x00 (0000ms, 0320ms total)
T0CC0 000:582 JLINK_WriteReg(R12, 0x00000000)  returns 0x00 (0000ms, 0320ms total)
T0CC0 000:582 JLINK_WriteReg(R13, 0x20000800)  returns 0x00 (0000ms, 0320ms total)
T0CC0 000:582 JLINK_WriteReg(R14, 0x20000001)  returns 0x00 (0000ms, 0320ms total)
T0CC0 000:582 JLINK_WriteReg(R15, 0x200000F4)  returns 0x00 (0000ms, 0320ms total)
T0CC0 000:582 JLINK_WriteReg(XPSR, 0x01000000)  returns 0x00 (0000ms, 0320ms total)
T0CC0 000:582 JLINK_WriteReg(MSP, 0x20000800)  returns 0x00 (0001ms, 0321ms total)
T0CC0 000:583 JLINK_WriteReg(PSP, 0x20000800)  returns 0x00 (0000ms, 0321ms total)
T0CC0 000:583 JLINK_WriteReg(CFBP, 0x00000000)  returns 0x00 (0000ms, 0321ms total)
T0CC0 000:583 JLINK_SetBPEx(Addr = 0x20000000, Type = 0xFFFFFFF2)  returns 0x00000006 (0000ms, 0321ms total)
T0CC0 000:583 JLINK_Go() (0002ms, 0323ms total)
T0CC0 000:585 JLINK_IsHalted()  returns FALSE (0001ms, 0324ms total)
T0CC0 000:636 JLINK_IsHalted() -- CPU_ReadMem(2 bytes @ 0x20000000)  returns TRUE (0006ms, 0329ms total)
T0CC0 000:642 JLINK_ReadReg(R15)  returns 0x20000000 (0000ms, 0323ms total)
T0CC0 000:642 JLINK_ClrBPEx(BPHandle = 0x00000006)  returns 0x00 (0000ms, 0323ms total)
T0CC0 000:642 JLINK_ReadReg(R0)  returns 0x00000000 (0000ms, 0323ms total)
T0CC0 000:643 JLINK_WriteMem(0x20000164, 0x0400 Bytes, ...) -- Data:  98 4B 58 68 20 F4 7C 10 42 EA 01 03 18 43 95 4B ... -- CPU_WriteMem(1024 bytes @ 0x20000164)  returns 0x400 (0007ms, 0330ms total)
T0CC0 000:650 JLINK_WriteReg(R0, 0x08000800)  returns 0x00 (0000ms, 0330ms total)
T0CC0 000:650 JLINK_WriteReg(R1, 0x00000400)  returns 0x00 (0000ms, 0330ms total)
T0CC0 000:650 JLINK_WriteReg(R2, 0x20000164)  returns 0x00 (0000ms, 0330ms total)
T0CC0 000:650 JLINK_WriteReg(R3, 0x00000000)  returns 0x00 (0000ms, 0330ms total)
T0CC0 000:650 JLINK_WriteReg(R4, 0x00000000)  returns 0x00 (0000ms, 0330ms total)
T0CC0 000:650 JLINK_WriteReg(R5, 0x00000000)  returns 0x00 (0000ms, 0330ms total)
T0CC0 000:650 JLINK_WriteReg(R6, 0x00000000)  returns 0x00 (0000ms, 0330ms total)
T0CC0 000:650 JLINK_WriteReg(R7, 0x00000000)  returns 0x00 (0000ms, 0330ms total)
T0CC0 000:650 JLINK_WriteReg(R8, 0x00000000)  returns 0x00 (0000ms, 0330ms total)
T0CC0 000:650 JLINK_WriteReg(R9, 0x20000160)  returns 0x00 (0000ms, 0330ms total)
T0CC0 000:650 JLINK_WriteReg(R10, 0x00000000)  returns 0x00 (0000ms, 0330ms total)
T0CC0 000:650 JLINK_WriteReg(R11, 0x00000000)  returns 0x00 (0000ms, 0330ms total)
T0CC0 000:650 JLINK_WriteReg(R12, 0x00000000)  returns 0x00 (0000ms, 0330ms total)
T0CC0 000:650 JLINK_WriteReg(R13, 0x20000800)  returns 0x00 (0000ms, 0330ms total)
T0CC0 000:650 JLINK_WriteReg(R14, 0x20000001)  returns 0x00 (0000ms, 0330ms total)
T0CC0 000:650 JLINK_WriteReg(R15, 0x200000F4)  returns 0x00 (0000ms, 0330ms total)
T0CC0 000:650 JLINK_WriteReg(XPSR, 0x01000000)  returns 0x00 (0000ms, 0330ms total)
T0CC0 000:650 JLINK_WriteReg(MSP, 0x20000800)  returns 0x00 (0000ms, 0330ms total)
T0CC0 000:650 JLINK_WriteReg(PSP, 0x20000800)  returns 0x00 (0000ms, 0330ms total)
T0CC0 000:650 JLINK_WriteReg(CFBP, 0x00000000)  returns 0x00 (0000ms, 0330ms total)
T0CC0 000:650 JLINK_SetBPEx(Addr = 0x20000000, Type = 0xFFFFFFF2)  returns 0x00000007 (0000ms, 0330ms total)
T0CC0 000:650 JLINK_Go() (0003ms, 0333ms total)
T0CC0 000:653 JLINK_IsHalted()  returns FALSE (0001ms, 0334ms total)
T0CC0 000:704 JLINK_IsHalted() -- CPU_ReadMem(2 bytes @ 0x20000000)  returns TRUE (0006ms, 0339ms total)
T0CC0 000:710 JLINK_ReadReg(R15)  returns 0x20000000 (0000ms, 0333ms total)
T0CC0 000:710 JLINK_ClrBPEx(BPHandle = 0x00000007)  returns 0x00 (0000ms, 0333ms total)
T0CC0 000:710 JLINK_ReadReg(R0)  returns 0x00000000 (0000ms, 0333ms total)
T0CC0 000:711 JLINK_WriteMem(0x20000164, 0x0400 Bytes, ...) -- Data:  81 80 C1 80 01 81 41 81 81 81 C1 81 07 21 01 82 ... -- CPU_WriteMem(1024 bytes @ 0x20000164)  returns 0x400 (0007ms, 0340ms total)
T0CC0 000:718 JLINK_WriteReg(R0, 0x08000C00)  returns 0x00 (0000ms, 0340ms total)
T0CC0 000:718 JLINK_WriteReg(R1, 0x00000400)  returns 0x00 (0000ms, 0340ms total)
T0CC0 000:718 JLINK_WriteReg(R2, 0x20000164)  returns 0x00 (0000ms, 0340ms total)
T0CC0 000:718 JLINK_WriteReg(R3, 0x00000000)  returns 0x00 (0000ms, 0340ms total)
T0CC0 000:718 JLINK_WriteReg(R4, 0x00000000)  returns 0x00 (0000ms, 0340ms total)
T0CC0 000:718 JLINK_WriteReg(R5, 0x00000000)  returns 0x00 (0000ms, 0340ms total)
T0CC0 000:718 JLINK_WriteReg(R6, 0x00000000)  returns 0x00 (0000ms, 0340ms total)
T0CC0 000:718 JLINK_WriteReg(R7, 0x00000000)  returns 0x00 (0000ms, 0340ms total)
T0CC0 000:718 JLINK_WriteReg(R8, 0x00000000)  returns 0x00 (0000ms, 0340ms total)
T0CC0 000:718 JLINK_WriteReg(R9, 0x20000160)  returns 0x00 (0000ms, 0340ms total)
T0CC0 000:718 JLINK_WriteReg(R10, 0x00000000)  returns 0x00 (0000ms, 0340ms total)
T0CC0 000:718 JLINK_WriteReg(R11, 0x00000000)  returns 0x00 (0000ms, 0340ms total)
T0CC0 000:718 JLINK_WriteReg(R12, 0x00000000)  returns 0x00 (0000ms, 0340ms total)
T0CC0 000:718 JLINK_WriteReg(R13, 0x20000800)  returns 0x00 (0000ms, 0340ms total)
T0CC0 000:718 JLINK_WriteReg(R14, 0x20000001)  returns 0x00 (0000ms, 0340ms total)
T0CC0 000:718 JLINK_WriteReg(R15, 0x200000F4)  returns 0x00 (0000ms, 0340ms total)
T0CC0 000:718 JLINK_WriteReg(XPSR, 0x01000000)  returns 0x00 (0000ms, 0340ms total)
T0CC0 000:718 JLINK_WriteReg(MSP, 0x20000800)  returns 0x00 (0000ms, 0340ms total)
T0CC0 000:718 JLINK_WriteReg(PSP, 0x20000800)  returns 0x00 (0000ms, 0340ms total)
T0CC0 000:718 JLINK_WriteReg(CFBP, 0x00000000)  returns 0x00 (0000ms, 0340ms total)
T0CC0 000:718 JLINK_SetBPEx(Addr = 0x20000000, Type = 0xFFFFFFF2)  returns 0x00000008 (0000ms, 0340ms total)
T0CC0 000:718 JLINK_Go() (0003ms, 0343ms total)
T0CC0 000:721 JLINK_IsHalted()  returns FALSE (0001ms, 0344ms total)
T0CC0 000:772 JLINK_IsHalted() -- CPU_ReadMem(2 bytes @ 0x20000000)  returns TRUE (0006ms, 0349ms total)
T0CC0 000:778 JLINK_ReadReg(R15)  returns 0x20000000 (0000ms, 0343ms total)
T0CC0 000:778 JLINK_ClrBPEx(BPHandle = 0x00000008)  returns 0x00 (0000ms, 0343ms total)
T0CC0 000:778 JLINK_ReadReg(R0)  returns 0x00000000 (0000ms, 0343ms total)
T0CC0 000:779 JLINK_WriteMem(0x20000164, 0x0400 Bytes, ...) -- Data:  02 83 02 8B 42 EA 01 22 02 83 70 47 02 8B 02 F4 ... -- CPU_WriteMem(1024 bytes @ 0x20000164)  returns 0x400 (0007ms, 0350ms total)
T0CC0 000:786 JLINK_WriteReg(R0, 0x08001000)  returns 0x00 (0000ms, 0350ms total)
T0CC0 000:786 JLINK_WriteReg(R1, 0x00000400)  returns 0x00 (0000ms, 0350ms total)
T0CC0 000:786 JLINK_WriteReg(R2, 0x20000164)  returns 0x00 (0000ms, 0350ms total)
T0CC0 000:786 JLINK_WriteReg(R3, 0x00000000)  returns 0x00 (0000ms, 0350ms total)
T0CC0 000:786 JLINK_WriteReg(R4, 0x00000000)  returns 0x00 (0000ms, 0350ms total)
T0CC0 000:786 JLINK_WriteReg(R5, 0x00000000)  returns 0x00 (0000ms, 0350ms total)
T0CC0 000:786 JLINK_WriteReg(R6, 0x00000000)  returns 0x00 (0000ms, 0350ms total)
T0CC0 000:786 JLINK_WriteReg(R7, 0x00000000)  returns 0x00 (0000ms, 0350ms total)
T0CC0 000:786 JLINK_WriteReg(R8, 0x00000000)  returns 0x00 (0000ms, 0350ms total)
T0CC0 000:786 JLINK_WriteReg(R9, 0x20000160)  returns 0x00 (0000ms, 0350ms total)
T0CC0 000:786 JLINK_WriteReg(R10, 0x00000000)  returns 0x00 (0000ms, 0350ms total)
T0CC0 000:786 JLINK_WriteReg(R11, 0x00000000)  returns 0x00 (0000ms, 0350ms total)
T0CC0 000:786 JLINK_WriteReg(R12, 0x00000000)  returns 0x00 (0000ms, 0350ms total)
T0CC0 000:786 JLINK_WriteReg(R13, 0x20000800)  returns 0x00 (0000ms, 0350ms total)
T0CC0 000:786 JLINK_WriteReg(R14, 0x20000001)  returns 0x00 (0000ms, 0350ms total)
T0CC0 000:786 JLINK_WriteReg(R15, 0x200000F4)  returns 0x00 (0000ms, 0350ms total)
T0CC0 000:786 JLINK_WriteReg(XPSR, 0x01000000)  returns 0x00 (0000ms, 0350ms total)
T0CC0 000:786 JLINK_WriteReg(MSP, 0x20000800)  returns 0x00 (0000ms, 0350ms total)
T0CC0 000:786 JLINK_WriteReg(PSP, 0x20000800)  returns 0x00 (0000ms, 0350ms total)
T0CC0 000:786 JLINK_WriteReg(CFBP, 0x00000000)  returns 0x00 (0000ms, 0350ms total)
T0CC0 000:786 JLINK_SetBPEx(Addr = 0x20000000, Type = 0xFFFFFFF2)  returns 0x00000009 (0000ms, 0350ms total)
T0CC0 000:786 JLINK_Go() (0002ms, 0352ms total)
T0CC0 000:788 JLINK_IsHalted()  returns FALSE (0001ms, 0353ms total)
T0CC0 000:839 JLINK_IsHalted() -- CPU_ReadMem(2 bytes @ 0x20000000)  returns TRUE (0005ms, 0357ms total)
T0CC0 000:844 JLINK_ReadReg(R15)  returns 0x20000000 (0001ms, 0353ms total)
T0CC0 000:845 JLINK_ClrBPEx(BPHandle = 0x00000009)  returns 0x00 (0000ms, 0353ms total)
T0CC0 000:845 JLINK_ReadReg(R0)  returns 0x00000000 (0000ms, 0353ms total)
T0CC0 000:846 JLINK_WriteMem(0x20000164, 0x0400 Bytes, ...) -- Data:  11 46 10 46 02 F0 74 F9 34 E0 31 48 0B F0 0E FF ... -- CPU_WriteMem(1024 bytes @ 0x20000164)  returns 0x400 (0006ms, 0359ms total)
T0CC0 000:853 JLINK_WriteReg(R0, 0x08001400)  returns 0x00 (0000ms, 0359ms total)
T0CC0 000:853 JLINK_WriteReg(R1, 0x00000400)  returns 0x00 (0000ms, 0359ms total)
T0CC0 000:853 JLINK_WriteReg(R2, 0x20000164)  returns 0x00 (0000ms, 0359ms total)
T0CC0 000:853 JLINK_WriteReg(R3, 0x00000000)  returns 0x00 (0000ms, 0359ms total)
T0CC0 000:853 JLINK_WriteReg(R4, 0x00000000)  returns 0x00 (0000ms, 0359ms total)
T0CC0 000:853 JLINK_WriteReg(R5, 0x00000000)  returns 0x00 (0000ms, 0359ms total)
T0CC0 000:853 JLINK_WriteReg(R6, 0x00000000)  returns 0x00 (0000ms, 0359ms total)
T0CC0 000:853 JLINK_WriteReg(R7, 0x00000000)  returns 0x00 (0000ms, 0359ms total)
T0CC0 000:853 JLINK_WriteReg(R8, 0x00000000)  returns 0x00 (0000ms, 0359ms total)
T0CC0 000:853 JLINK_WriteReg(R9, 0x20000160)  returns 0x00 (0000ms, 0359ms total)
T0CC0 000:853 JLINK_WriteReg(R10, 0x00000000)  returns 0x00 (0000ms, 0359ms total)
T0CC0 000:853 JLINK_WriteReg(R11, 0x00000000)  returns 0x00 (0000ms, 0359ms total)
T0CC0 000:853 JLINK_WriteReg(R12, 0x00000000)  returns 0x00 (0000ms, 0359ms total)
T0CC0 000:853 JLINK_WriteReg(R13, 0x20000800)  returns 0x00 (0000ms, 0359ms total)
T0CC0 000:853 JLINK_WriteReg(R14, 0x20000001)  returns 0x00 (0000ms, 0359ms total)
T0CC0 000:853 JLINK_WriteReg(R15, 0x200000F4)  returns 0x00 (0000ms, 0359ms total)
T0CC0 000:853 JLINK_WriteReg(XPSR, 0x01000000)  returns 0x00 (0000ms, 0359ms total)
T0CC0 000:853 JLINK_WriteReg(MSP, 0x20000800)  returns 0x00 (0000ms, 0359ms total)
T0CC0 000:853 JLINK_WriteReg(PSP, 0x20000800)  returns 0x00 (0000ms, 0359ms total)
T0CC0 000:853 JLINK_WriteReg(CFBP, 0x00000000)  returns 0x00 (0000ms, 0359ms total)
T0CC0 000:853 JLINK_SetBPEx(Addr = 0x20000000, Type = 0xFFFFFFF2)  returns 0x0000000A (0000ms, 0359ms total)
T0CC0 000:853 JLINK_Go() (0002ms, 0361ms total)
T0CC0 000:855 JLINK_IsHalted()  returns FALSE (0001ms, 0362ms total)
T0CC0 000:906 JLINK_IsHalted() -- CPU_ReadMem(2 bytes @ 0x20000000)  returns TRUE (0006ms, 0367ms total)
T0CC0 000:912 JLINK_ReadReg(R15)  returns 0x20000000 (0000ms, 0361ms total)
T0CC0 000:912 JLINK_ClrBPEx(BPHandle = 0x0000000A)  returns 0x00 (0000ms, 0361ms total)
T0CC0 000:912 JLINK_ReadReg(R0)  returns 0x00000000 (0000ms, 0361ms total)
T0CC0 000:913 JLINK_WriteMem(0x20000164, 0x0400 Bytes, ...) -- Data:  6C 49 08 60 6A 49 08 70 70 47 10 B5 02 F0 1A F8 ... -- CPU_WriteMem(1024 bytes @ 0x20000164)  returns 0x400 (0007ms, 0368ms total)
T0CC0 000:920 JLINK_WriteReg(R0, 0x08001800)  returns 0x00 (0000ms, 0368ms total)
T0CC0 000:920 JLINK_WriteReg(R1, 0x00000400)  returns 0x00 (0000ms, 0368ms total)
T0CC0 000:920 JLINK_WriteReg(R2, 0x20000164)  returns 0x00 (0000ms, 0368ms total)
T0CC0 000:920 JLINK_WriteReg(R3, 0x00000000)  returns 0x00 (0000ms, 0368ms total)
T0CC0 000:920 JLINK_WriteReg(R4, 0x00000000)  returns 0x00 (0000ms, 0368ms total)
T0CC0 000:920 JLINK_WriteReg(R5, 0x00000000)  returns 0x00 (0000ms, 0368ms total)
T0CC0 000:920 JLINK_WriteReg(R6, 0x00000000)  returns 0x00 (0000ms, 0368ms total)
T0CC0 000:920 JLINK_WriteReg(R7, 0x00000000)  returns 0x00 (0000ms, 0368ms total)
T0CC0 000:920 JLINK_WriteReg(R8, 0x00000000)  returns 0x00 (0000ms, 0368ms total)
T0CC0 000:920 JLINK_WriteReg(R9, 0x20000160)  returns 0x00 (0000ms, 0368ms total)
T0CC0 000:920 JLINK_WriteReg(R10, 0x00000000)  returns 0x00 (0000ms, 0368ms total)
T0CC0 000:920 JLINK_WriteReg(R11, 0x00000000)  returns 0x00 (0000ms, 0368ms total)
T0CC0 000:920 JLINK_WriteReg(R12, 0x00000000)  returns 0x00 (0000ms, 0368ms total)
T0CC0 000:920 JLINK_WriteReg(R13, 0x20000800)  returns 0x00 (0000ms, 0368ms total)
T0CC0 000:920 JLINK_WriteReg(R14, 0x20000001)  returns 0x00 (0000ms, 0368ms total)
T0CC0 000:920 JLINK_WriteReg(R15, 0x200000F4)  returns 0x00 (0000ms, 0368ms total)
T0CC0 000:920 JLINK_WriteReg(XPSR, 0x01000000)  returns 0x00 (0000ms, 0368ms total)
T0CC0 000:920 JLINK_WriteReg(MSP, 0x20000800)  returns 0x00 (0000ms, 0368ms total)
T0CC0 000:920 JLINK_WriteReg(PSP, 0x20000800)  returns 0x00 (0000ms, 0368ms total)
T0CC0 000:920 JLINK_WriteReg(CFBP, 0x00000000)  returns 0x00 (0000ms, 0368ms total)
T0CC0 000:920 JLINK_SetBPEx(Addr = 0x20000000, Type = 0xFFFFFFF2)  returns 0x0000000B (0000ms, 0368ms total)
T0CC0 000:920 JLINK_Go() (0002ms, 0370ms total)
T0CC0 000:922 JLINK_IsHalted()  returns FALSE (0001ms, 0371ms total)
T0CC0 000:973 JLINK_IsHalted() -- CPU_ReadMem(2 bytes @ 0x20000000)  returns TRUE (0006ms, 0376ms total)
T0CC0 000:979 JLINK_ReadReg(R15)  returns 0x20000000 (0000ms, 0370ms total)
T0CC0 000:979 JLINK_ClrBPEx(BPHandle = 0x0000000B)  returns 0x00 (0000ms, 0370ms total)
T0CC0 000:979 JLINK_ReadReg(R0)  returns 0x00000000 (0000ms, 0370ms total)
T0CC0 000:979 JLINK_WriteMem(0x20000164, 0x0400 Bytes, ...) -- Data:  20 04 E0 60 27 60 20 7C 6F EA 08 01 C9 B2 00 EA ... -- CPU_WriteMem(1024 bytes @ 0x20000164)  returns 0x400 (0007ms, 0377ms total)
T0CC0 000:986 JLINK_WriteReg(R0, 0x08001C00)  returns 0x00 (0000ms, 0377ms total)
T0CC0 000:986 JLINK_WriteReg(R1, 0x00000400)  returns 0x00 (0000ms, 0377ms total)
T0CC0 000:986 JLINK_WriteReg(R2, 0x20000164)  returns 0x00 (0001ms, 0378ms total)
T0CC0 000:987 JLINK_WriteReg(R3, 0x00000000)  returns 0x00 (0000ms, 0378ms total)
T0CC0 000:987 JLINK_WriteReg(R4, 0x00000000)  returns 0x00 (0000ms, 0378ms total)
T0CC0 000:987 JLINK_WriteReg(R5, 0x00000000)  returns 0x00 (0000ms, 0378ms total)
T0CC0 000:987 JLINK_WriteReg(R6, 0x00000000)  returns 0x00 (0000ms, 0378ms total)
T0CC0 000:987 JLINK_WriteReg(R7, 0x00000000)  returns 0x00 (0000ms, 0378ms total)
T0CC0 000:987 JLINK_WriteReg(R8, 0x00000000)  returns 0x00 (0000ms, 0378ms total)
T0CC0 000:987 JLINK_WriteReg(R9, 0x20000160)  returns 0x00 (0000ms, 0378ms total)
T0CC0 000:987 JLINK_WriteReg(R10, 0x00000000)  returns 0x00 (0000ms, 0378ms total)
T0CC0 000:987 JLINK_WriteReg(R11, 0x00000000)  returns 0x00 (0000ms, 0378ms total)
T0CC0 000:987 JLINK_WriteReg(R12, 0x00000000)  returns 0x00 (0000ms, 0378ms total)
T0CC0 000:987 JLINK_WriteReg(R13, 0x20000800)  returns 0x00 (0000ms, 0378ms total)
T0CC0 000:987 JLINK_WriteReg(R14, 0x20000001)  returns 0x00 (0000ms, 0378ms total)
T0CC0 000:987 JLINK_WriteReg(R15, 0x200000F4)  returns 0x00 (0000ms, 0378ms total)
T0CC0 000:987 JLINK_WriteReg(XPSR, 0x01000000)  returns 0x00 (0000ms, 0378ms total)
T0CC0 000:987 JLINK_WriteReg(MSP, 0x20000800)  returns 0x00 (0000ms, 0378ms total)
T0CC0 000:987 JLINK_WriteReg(PSP, 0x20000800)  returns 0x00 (0000ms, 0378ms total)
T0CC0 000:987 JLINK_WriteReg(CFBP, 0x00000000)  returns 0x00 (0000ms, 0378ms total)
T0CC0 000:987 JLINK_SetBPEx(Addr = 0x20000000, Type = 0xFFFFFFF2)  returns 0x0000000C (0000ms, 0378ms total)
T0CC0 000:987 JLINK_Go() (0002ms, 0380ms total)
T0CC0 000:989 JLINK_IsHalted()  returns FALSE (0001ms, 0381ms total)
T0CC0 001:040 JLINK_IsHalted() -- CPU_ReadMem(2 bytes @ 0x20000000)  returns TRUE (0006ms, 0386ms total)
T0CC0 001:046 JLINK_ReadReg(R15)  returns 0x20000000 (0000ms, 0380ms total)
T0CC0 001:046 JLINK_ClrBPEx(BPHandle = 0x0000000C)  returns 0x00 (0000ms, 0380ms total)
T0CC0 001:046 JLINK_ReadReg(R0)  returns 0x00000000 (0000ms, 0380ms total)
T0CC0 001:047 JLINK_WriteMem(0x20000164, 0x0400 Bytes, ...) -- Data:  06 46 0F 46 B4 68 00 20 04 F1 28 04 60 60 27 80 ... -- CPU_WriteMem(1024 bytes @ 0x20000164)  returns 0x400 (0007ms, 0387ms total)
T0CC0 001:054 JLINK_WriteReg(R0, 0x08002000)  returns 0x00 (0000ms, 0387ms total)
T0CC0 001:054 JLINK_WriteReg(R1, 0x00000400)  returns 0x00 (0000ms, 0387ms total)
T0CC0 001:054 JLINK_WriteReg(R2, 0x20000164)  returns 0x00 (0000ms, 0387ms total)
T0CC0 001:054 JLINK_WriteReg(R3, 0x00000000)  returns 0x00 (0000ms, 0387ms total)
T0CC0 001:054 JLINK_WriteReg(R4, 0x00000000)  returns 0x00 (0000ms, 0387ms total)
T0CC0 001:054 JLINK_WriteReg(R5, 0x00000000)  returns 0x00 (0000ms, 0387ms total)
T0CC0 001:054 JLINK_WriteReg(R6, 0x00000000)  returns 0x00 (0000ms, 0387ms total)
T0CC0 001:054 JLINK_WriteReg(R7, 0x00000000)  returns 0x00 (0000ms, 0387ms total)
T0CC0 001:054 JLINK_WriteReg(R8, 0x00000000)  returns 0x00 (0000ms, 0387ms total)
T0CC0 001:054 JLINK_WriteReg(R9, 0x20000160)  returns 0x00 (0000ms, 0387ms total)
T0CC0 001:054 JLINK_WriteReg(R10, 0x00000000)  returns 0x00 (0000ms, 0387ms total)
T0CC0 001:054 JLINK_WriteReg(R11, 0x00000000)  returns 0x00 (0000ms, 0387ms total)
T0CC0 001:054 JLINK_WriteReg(R12, 0x00000000)  returns 0x00 (0000ms, 0387ms total)
T0CC0 001:054 JLINK_WriteReg(R13, 0x20000800)  returns 0x00 (0000ms, 0387ms total)
T0CC0 001:054 JLINK_WriteReg(R14, 0x20000001)  returns 0x00 (0000ms, 0387ms total)
T0CC0 001:054 JLINK_WriteReg(R15, 0x200000F4)  returns 0x00 (0000ms, 0387ms total)
T0CC0 001:054 JLINK_WriteReg(XPSR, 0x01000000)  returns 0x00 (0000ms, 0387ms total)
T0CC0 001:054 JLINK_WriteReg(MSP, 0x20000800)  returns 0x00 (0000ms, 0387ms total)
T0CC0 001:054 JLINK_WriteReg(PSP, 0x20000800)  returns 0x00 (0000ms, 0387ms total)
T0CC0 001:054 JLINK_WriteReg(CFBP, 0x00000000)  returns 0x00 (0000ms, 0387ms total)
T0CC0 001:054 JLINK_SetBPEx(Addr = 0x20000000, Type = 0xFFFFFFF2)  returns 0x0000000D (0000ms, 0387ms total)
T0CC0 001:054 JLINK_Go() (0003ms, 0390ms total)
T0CC0 001:057 JLINK_IsHalted()  returns FALSE (0002ms, 0392ms total)
T0CC0 001:109 JLINK_IsHalted() -- CPU_ReadMem(2 bytes @ 0x20000000)  returns TRUE (0005ms, 0395ms total)
T0CC0 001:114 JLINK_ReadReg(R15)  returns 0x20000000 (0000ms, 0390ms total)
T0CC0 001:114 JLINK_ClrBPEx(BPHandle = 0x0000000D)  returns 0x00 (0000ms, 0390ms total)
T0CC0 001:114 JLINK_ReadReg(R0)  returns 0x00000000 (0000ms, 0390ms total)
T0CC0 001:115 JLINK_WriteMem(0x20000164, 0x0400 Bytes, ...) -- Data:  44 E7 0A 9B 00 93 4B 46 3A 46 02 A9 28 46 FF F7 ... -- CPU_WriteMem(1024 bytes @ 0x20000164)  returns 0x400 (0007ms, 0397ms total)
T0CC0 001:122 JLINK_WriteReg(R0, 0x08002400)  returns 0x00 (0000ms, 0397ms total)
T0CC0 001:122 JLINK_WriteReg(R1, 0x00000400)  returns 0x00 (0000ms, 0397ms total)
T0CC0 001:122 JLINK_WriteReg(R2, 0x20000164)  returns 0x00 (0000ms, 0397ms total)
T0CC0 001:122 JLINK_WriteReg(R3, 0x00000000)  returns 0x00 (0000ms, 0397ms total)
T0CC0 001:122 JLINK_WriteReg(R4, 0x00000000)  returns 0x00 (0000ms, 0397ms total)
T0CC0 001:122 JLINK_WriteReg(R5, 0x00000000)  returns 0x00 (0000ms, 0397ms total)
T0CC0 001:122 JLINK_WriteReg(R6, 0x00000000)  returns 0x00 (0000ms, 0397ms total)
T0CC0 001:122 JLINK_WriteReg(R7, 0x00000000)  returns 0x00 (0000ms, 0397ms total)
T0CC0 001:122 JLINK_WriteReg(R8, 0x00000000)  returns 0x00 (0000ms, 0397ms total)
T0CC0 001:122 JLINK_WriteReg(R9, 0x20000160)  returns 0x00 (0000ms, 0397ms total)
T0CC0 001:122 JLINK_WriteReg(R10, 0x00000000)  returns 0x00 (0001ms, 0398ms total)
T0CC0 001:123 JLINK_WriteReg(R11, 0x00000000)  returns 0x00 (0000ms, 0398ms total)
T0CC0 001:123 JLINK_WriteReg(R12, 0x00000000)  returns 0x00 (0000ms, 0398ms total)
T0CC0 001:123 JLINK_WriteReg(R13, 0x20000800)  returns 0x00 (0000ms, 0398ms total)
T0CC0 001:123 JLINK_WriteReg(R14, 0x20000001)  returns 0x00 (0000ms, 0398ms total)
T0CC0 001:123 JLINK_WriteReg(R15, 0x200000F4)  returns 0x00 (0000ms, 0398ms total)
T0CC0 001:123 JLINK_WriteReg(XPSR, 0x01000000)  returns 0x00 (0000ms, 0398ms total)
T0CC0 001:123 JLINK_WriteReg(MSP, 0x20000800)  returns 0x00 (0000ms, 0398ms total)
T0CC0 001:123 JLINK_WriteReg(PSP, 0x20000800)  returns 0x00 (0000ms, 0398ms total)
T0CC0 001:123 JLINK_WriteReg(CFBP, 0x00000000)  returns 0x00 (0000ms, 0398ms total)
T0CC0 001:123 JLINK_SetBPEx(Addr = 0x20000000, Type = 0xFFFFFFF2)  returns 0x0000000E (0000ms, 0398ms total)
T0CC0 001:123 JLINK_Go() (0003ms, 0401ms total)
T0CC0 001:126 JLINK_IsHalted()  returns FALSE (0001ms, 0402ms total)
T0CC0 001:177 JLINK_IsHalted() -- CPU_ReadMem(2 bytes @ 0x20000000)  returns TRUE (0006ms, 0407ms total)
T0CC0 001:183 JLINK_ReadReg(R15)  returns 0x20000000 (0000ms, 0401ms total)
T0CC0 001:183 JLINK_ClrBPEx(BPHandle = 0x0000000E)  returns 0x00 (0000ms, 0401ms total)
T0CC0 001:183 JLINK_ReadReg(R0)  returns 0x00000000 (0000ms, 0401ms total)
T0CC0 001:184 JLINK_WriteMem(0x20000164, 0x0400 Bytes, ...) -- Data:  03 10 88 42 04 D3 30 46 01 F0 78 F8 5E 20 70 BD ... -- CPU_WriteMem(1024 bytes @ 0x20000164)  returns 0x400 (0007ms, 0408ms total)
T0CC0 001:191 JLINK_WriteReg(R0, 0x08002800)  returns 0x00 (0000ms, 0408ms total)
T0CC0 001:191 JLINK_WriteReg(R1, 0x00000400)  returns 0x00 (0000ms, 0408ms total)
T0CC0 001:191 JLINK_WriteReg(R2, 0x20000164)  returns 0x00 (0000ms, 0408ms total)
T0CC0 001:191 JLINK_WriteReg(R3, 0x00000000)  returns 0x00 (0000ms, 0408ms total)
T0CC0 001:191 JLINK_WriteReg(R4, 0x00000000)  returns 0x00 (0000ms, 0408ms total)
T0CC0 001:191 JLINK_WriteReg(R5, 0x00000000)  returns 0x00 (0000ms, 0408ms total)
T0CC0 001:191 JLINK_WriteReg(R6, 0x00000000)  returns 0x00 (0000ms, 0408ms total)
T0CC0 001:191 JLINK_WriteReg(R7, 0x00000000)  returns 0x00 (0000ms, 0408ms total)
T0CC0 001:191 JLINK_WriteReg(R8, 0x00000000)  returns 0x00 (0000ms, 0408ms total)
T0CC0 001:191 JLINK_WriteReg(R9, 0x20000160)  returns 0x00 (0000ms, 0408ms total)
T0CC0 001:191 JLINK_WriteReg(R10, 0x00000000)  returns 0x00 (0000ms, 0408ms total)
T0CC0 001:191 JLINK_WriteReg(R11, 0x00000000)  returns 0x00 (0000ms, 0408ms total)
T0CC0 001:191 JLINK_WriteReg(R12, 0x00000000)  returns 0x00 (0000ms, 0408ms total)
T0CC0 001:191 JLINK_WriteReg(R13, 0x20000800)  returns 0x00 (0000ms, 0408ms total)
T0CC0 001:191 JLINK_WriteReg(R14, 0x20000001)  returns 0x00 (0000ms, 0408ms total)
T0CC0 001:191 JLINK_WriteReg(R15, 0x200000F4)  returns 0x00 (0000ms, 0408ms total)
T0CC0 001:191 JLINK_WriteReg(XPSR, 0x01000000)  returns 0x00 (0000ms, 0408ms total)
T0CC0 001:191 JLINK_WriteReg(MSP, 0x20000800)  returns 0x00 (0000ms, 0408ms total)
T0CC0 001:191 JLINK_WriteReg(PSP, 0x20000800)  returns 0x00 (0000ms, 0408ms total)
T0CC0 001:191 JLINK_WriteReg(CFBP, 0x00000000)  returns 0x00 (0000ms, 0408ms total)
T0CC0 001:191 JLINK_SetBPEx(Addr = 0x20000000, Type = 0xFFFFFFF2)  returns 0x0000000F (0000ms, 0408ms total)
T0CC0 001:191 JLINK_Go() (0003ms, 0411ms total)
T0CC0 001:194 JLINK_IsHalted()  returns FALSE (0000ms, 0411ms total)
T0CC0 001:244 JLINK_IsHalted() -- CPU_ReadMem(2 bytes @ 0x20000000)  returns TRUE (0006ms, 0417ms total)
T0CC0 001:250 JLINK_ReadReg(R15)  returns 0x20000000 (0000ms, 0411ms total)
T0CC0 001:250 JLINK_ClrBPEx(BPHandle = 0x0000000F)  returns 0x00 (0000ms, 0411ms total)
T0CC0 001:250 JLINK_ReadReg(R0)  returns 0x00000000 (0000ms, 0411ms total)
T0CC0 001:251 JLINK_WriteMem(0x20000164, 0x0400 Bytes, ...) -- Data:  09 E0 00 BF 02 23 04 22 00 21 20 46 FE F7 E1 FF ... -- CPU_WriteMem(1024 bytes @ 0x20000164)  returns 0x400 (0007ms, 0418ms total)
T0CC0 001:258 JLINK_WriteReg(R0, 0x08002C00)  returns 0x00 (0000ms, 0418ms total)
T0CC0 001:258 JLINK_WriteReg(R1, 0x00000400)  returns 0x00 (0000ms, 0418ms total)
T0CC0 001:258 JLINK_WriteReg(R2, 0x20000164)  returns 0x00 (0000ms, 0418ms total)
T0CC0 001:258 JLINK_WriteReg(R3, 0x00000000)  returns 0x00 (0000ms, 0418ms total)
T0CC0 001:258 JLINK_WriteReg(R4, 0x00000000)  returns 0x00 (0000ms, 0418ms total)
T0CC0 001:258 JLINK_WriteReg(R5, 0x00000000)  returns 0x00 (0000ms, 0418ms total)
T0CC0 001:258 JLINK_WriteReg(R6, 0x00000000)  returns 0x00 (0000ms, 0418ms total)
T0CC0 001:258 JLINK_WriteReg(R7, 0x00000000)  returns 0x00 (0000ms, 0418ms total)
T0CC0 001:258 JLINK_WriteReg(R8, 0x00000000)  returns 0x00 (0000ms, 0418ms total)
T0CC0 001:258 JLINK_WriteReg(R9, 0x20000160)  returns 0x00 (0000ms, 0418ms total)
T0CC0 001:258 JLINK_WriteReg(R10, 0x00000000)  returns 0x00 (0000ms, 0418ms total)
T0CC0 001:258 JLINK_WriteReg(R11, 0x00000000)  returns 0x00 (0000ms, 0418ms total)
T0CC0 001:258 JLINK_WriteReg(R12, 0x00000000)  returns 0x00 (0000ms, 0418ms total)
T0CC0 001:258 JLINK_WriteReg(R13, 0x20000800)  returns 0x00 (0000ms, 0418ms total)
T0CC0 001:258 JLINK_WriteReg(R14, 0x20000001)  returns 0x00 (0000ms, 0418ms total)
T0CC0 001:258 JLINK_WriteReg(R15, 0x200000F4)  returns 0x00 (0000ms, 0418ms total)
T0CC0 001:258 JLINK_WriteReg(XPSR, 0x01000000)  returns 0x00 (0000ms, 0418ms total)
T0CC0 001:258 JLINK_WriteReg(MSP, 0x20000800)  returns 0x00 (0000ms, 0418ms total)
T0CC0 001:258 JLINK_WriteReg(PSP, 0x20000800)  returns 0x00 (0000ms, 0418ms total)
T0CC0 001:258 JLINK_WriteReg(CFBP, 0x00000000)  returns 0x00 (0000ms, 0418ms total)
T0CC0 001:258 JLINK_SetBPEx(Addr = 0x20000000, Type = 0xFFFFFFF2)  returns 0x00000010 (0000ms, 0418ms total)
T0CC0 001:258 JLINK_Go() (0003ms, 0421ms total)
T0CC0 001:261 JLINK_IsHalted()  returns FALSE (0000ms, 0421ms total)
T0CC0 001:311 JLINK_IsHalted() -- CPU_ReadMem(2 bytes @ 0x20000000)  returns TRUE (0006ms, 0427ms total)
T0CC0 001:317 JLINK_ReadReg(R15)  returns 0x20000000 (0000ms, 0421ms total)
T0CC0 001:317 JLINK_ClrBPEx(BPHandle = 0x00000010)  returns 0x00 (0000ms, 0421ms total)
T0CC0 001:317 JLINK_ReadReg(R0)  returns 0x00000000 (0000ms, 0421ms total)
T0CC0 001:317 JLINK_WriteMem(0x20000164, 0x0400 Bytes, ...) -- Data:  7D FC 3C 20 BD E8 FE 8F A2 48 50 F8 24 00 58 BB ... -- CPU_WriteMem(1024 bytes @ 0x20000164)  returns 0x400 (0007ms, 0428ms total)
T0CC0 001:324 JLINK_WriteReg(R0, 0x08003000)  returns 0x00 (0000ms, 0428ms total)
T0CC0 001:324 JLINK_WriteReg(R1, 0x00000400)  returns 0x00 (0000ms, 0428ms total)
T0CC0 001:324 JLINK_WriteReg(R2, 0x20000164)  returns 0x00 (0000ms, 0428ms total)
T0CC0 001:324 JLINK_WriteReg(R3, 0x00000000)  returns 0x00 (0000ms, 0428ms total)
T0CC0 001:324 JLINK_WriteReg(R4, 0x00000000)  returns 0x00 (0000ms, 0428ms total)
T0CC0 001:324 JLINK_WriteReg(R5, 0x00000000)  returns 0x00 (0000ms, 0428ms total)
T0CC0 001:324 JLINK_WriteReg(R6, 0x00000000)  returns 0x00 (0000ms, 0428ms total)
T0CC0 001:324 JLINK_WriteReg(R7, 0x00000000)  returns 0x00 (0000ms, 0428ms total)
T0CC0 001:324 JLINK_WriteReg(R8, 0x00000000)  returns 0x00 (0000ms, 0428ms total)
T0CC0 001:324 JLINK_WriteReg(R9, 0x20000160)  returns 0x00 (0000ms, 0428ms total)
T0CC0 001:324 JLINK_WriteReg(R10, 0x00000000)  returns 0x00 (0001ms, 0429ms total)
T0CC0 001:325 JLINK_WriteReg(R11, 0x00000000)  returns 0x00 (0000ms, 0429ms total)
T0CC0 001:325 JLINK_WriteReg(R12, 0x00000000)  returns 0x00 (0000ms, 0429ms total)
T0CC0 001:325 JLINK_WriteReg(R13, 0x20000800)  returns 0x00 (0000ms, 0429ms total)
T0CC0 001:325 JLINK_WriteReg(R14, 0x20000001)  returns 0x00 (0000ms, 0429ms total)
T0CC0 001:325 JLINK_WriteReg(R15, 0x200000F4)  returns 0x00 (0000ms, 0429ms total)
T0CC0 001:325 JLINK_WriteReg(XPSR, 0x01000000)  returns 0x00 (0000ms, 0429ms total)
T0CC0 001:325 JLINK_WriteReg(MSP, 0x20000800)  returns 0x00 (0000ms, 0429ms total)
T0CC0 001:325 JLINK_WriteReg(PSP, 0x20000800)  returns 0x00 (0000ms, 0429ms total)
T0CC0 001:325 JLINK_WriteReg(CFBP, 0x00000000)  returns 0x00 (0000ms, 0429ms total)
T0CC0 001:325 JLINK_SetBPEx(Addr = 0x20000000, Type = 0xFFFFFFF2)  returns 0x00000011 (0000ms, 0429ms total)
T0CC0 001:325 JLINK_Go() (0002ms, 0431ms total)
T0CC0 001:327 JLINK_IsHalted()  returns FALSE (0001ms, 0432ms total)
T0CC0 001:378 JLINK_IsHalted() -- CPU_ReadMem(2 bytes @ 0x20000000)  returns TRUE (0006ms, 0437ms total)
T0CC0 001:384 JLINK_ReadReg(R15)  returns 0x20000000 (0000ms, 0431ms total)
T0CC0 001:384 JLINK_ClrBPEx(BPHandle = 0x00000011)  returns 0x00 (0000ms, 0431ms total)
T0CC0 001:384 JLINK_ReadReg(R0)  returns 0x00000000 (0000ms, 0431ms total)
T0CC0 001:384 JLINK_WriteMem(0x20000164, 0x0400 Bytes, ...) -- Data:  14 F8 30 0F 00 F0 F7 00 20 70 14 F8 30 09 10 BB ... -- CPU_WriteMem(1024 bytes @ 0x20000164)  returns 0x400 (0007ms, 0438ms total)
T0CC0 001:391 JLINK_WriteReg(R0, 0x08003400)  returns 0x00 (0000ms, 0438ms total)
T0CC0 001:391 JLINK_WriteReg(R1, 0x00000400)  returns 0x00 (0000ms, 0438ms total)
T0CC0 001:391 JLINK_WriteReg(R2, 0x20000164)  returns 0x00 (0000ms, 0438ms total)
T0CC0 001:391 JLINK_WriteReg(R3, 0x00000000)  returns 0x00 (0000ms, 0438ms total)
T0CC0 001:391 JLINK_WriteReg(R4, 0x00000000)  returns 0x00 (0000ms, 0438ms total)
T0CC0 001:391 JLINK_WriteReg(R5, 0x00000000)  returns 0x00 (0000ms, 0438ms total)
